[2026-09-20 11:44:03.535] [INFO] [tid:2248] dialog-g2-engine started
[2026-09-20 11:44:03.537] [DEBUG] [tid:2248] Debug log enabled
[2026-09-20 11:44:03.538] [INFO] [tid:2248] Relay RTU port: COM8, baud=9600
[2026-09-20 11:44:03.538] [INFO] [tid:2248] Metering RTU port: COM6, baud=9600
[2026-09-20 11:44:03.545] [INFO] [tid:2248] Previous runtime timing: startedAt=2026-09-20T08:43:08Z, lastHeartbeat=2026-09-20T08:43:08Z
[2026-09-20 11:44:03.546] [INFO] [tid:2248] Runtime timing: startedAt=2026-09-20T08:44:03Z, lastHeartbeat=2026-09-20T08:44:03Z
[2026-09-20 11:44:03.599] [INFO] [tid:2248] Modbus TCP state: Connecting
[2026-09-20 11:44:03.606] [INFO] [tid:2248] Modbus TCP state: Connected
[2026-09-20 11:44:03.607] [INFO] [tid:2248] Modbus TCP сервер запущен: 0.0.0.0:502, slave id=1
[2026-09-20 11:44:03.608] [INFO] [tid:2248] Web server started: http://0.0.0.0:8080, root=C:/Qt_work/DialogG2/build/Desktop_Qt_6_10_3_MSVC2022_64bit-Debug/web
[2026-09-20 11:44:03.608] [INFO] [tid:2248] IPC server started: emergency_panel_backend
[2026-09-20 11:44:03.609] [INFO] [tid:2248] Maintenance check: Тест длительности еще не проводился; Просрочены проверки линий: Гараж, Линия 2, Линия 3, Линия 8, Линия 9, Линия 10, Линия 11, Линия 12
[2026-09-20 11:44:03.625] [INFO] [tid:2248] Авария / Неисправность - Есть неисправность: реле, АКБ: нет данных BMS
[2026-09-20 11:44:03.661] [DEBUG] [tid:2248] Metering TX: 06 03 00 0b 00 07 74 7d (C:\Qt_work\DialogG2\src\engine\MeteringBusController.cpp:283)
[2026-09-20 11:44:03.703] [DEBUG] [tid:2248] Metering TX: 02 03 00 c0 00 30 45 d1 (C:\Qt_work\DialogG2\src\engine\MeteringBusController.cpp:283)
[2026-09-20 11:44:03.847] [DEBUG] [tid:2248] Metering TX: 02 03 00 30 00 30 45 e2 (C:\Qt_work\DialogG2\src\engine\MeteringBusController.cpp:283)
[2026-09-20 11:44:03.975] [DEBUG] [tid:2248] Metering TX: 02 03 00 90 00 30 45 c0 (C:\Qt_work\DialogG2\src\engine\MeteringBusController.cpp:283)
[2026-09-20 11:44:04.103] [DEBUG] [tid:2248] Metering TX: 04 03 00 11 00 20 14 42 (C:\Qt_work\DialogG2\src\engine\MeteringBusController.cpp:283)
[2026-09-20 11:44:04.230] [DEBUG] [tid:2248] Metering TX: 05 03 03 00 00 02 c5 cb (C:\Qt_work\DialogG2\src\engine\MeteringBusController.cpp:283)
[2026-09-20 11:44:04.503] [DEBUG] [tid:2248] Metering TX: dd a5 03 00 ff fd 77 (C:\Qt_work\DialogG2\src\engine\MeteringBusController.cpp:283)
[2026-09-20 11:44:04.610] [DEBUG] [tid:2248] Metering TX: dd a5 04 00 ff fc 77 (C:\Qt_work\DialogG2\src\engine\MeteringBusController.cpp:283)
[2026-09-20 11:44:04.719] [DEBUG] [tid:2248] Metering TX: 06 03 00 0b 00 07 74 7d (C:\Qt_work\DialogG2\src\engine\MeteringBusController.cpp:283)
[2026-09-20 11:44:04.758] [DEBUG] [tid:2248] Metering TX: 02 03 00 c0 00 30 45 d1 (C:\Qt_work\DialogG2\src\engine\MeteringBusController.cpp:283)
[2026-09-20 11:44:04.886] [DEBUG] [tid:2248] Metering TX: 02 03 00 30 00 30 45 e2 (C:\Qt_work\DialogG2\src\engine\MeteringBusController.cpp:283)
[2026-09-20 11:44:05.014] [DEBUG] [tid:2248] Metering TX: 02 03 00 90 00 30 45 c0 (C:\Qt_work\DialogG2\src\engine\MeteringBusController.cpp:283)
[2026-09-20 11:44:05.142] [DEBUG] [tid:2248] Metering TX: 04 03 00 11 00 20 14 42 (C:\Qt_work\DialogG2\src\engine\MeteringBusController.cpp:283)
[2026-09-20 11:44:05.663] [DEBUG] [tid:2248] Metering TX: dd a5 03 00 ff fd 77 (C:\Qt_work\DialogG2\src\engine\MeteringBusController.cpp:283)
[2026-09-20 11:44:05.788] [DEBUG] [tid:2248] Metering TX: 06 03 00 0b 00 07 74 7d (C:\Qt_work\DialogG2\src\engine\MeteringBusController.cpp:283)
[2026-09-20 11:44:05.829] [DEBUG] [tid:2248] Metering TX: 02 03 00 c0 00 30 45 d1 (C:\Qt_work\DialogG2\src\engine\MeteringBusController.cpp:283)
[2026-09-20 11:44:05.956] [DEBUG] [tid:2248] Metering TX: 02 03 00 30 00 30 45 e2 (C:\Qt_work\DialogG2\src\engine\MeteringBusController.cpp:283)
[2026-09-20 11:44:06.084] [DEBUG] [tid:2248] Metering TX: 02 03 00 90 00 30 45 c0 (C:\Qt_work\DialogG2\src\engine\MeteringBusController.cpp:283)
[2026-09-20 11:44:06.212] [DEBUG] [tid:2248] Metering TX: 04 03 00 11 00 20 14 42 (C:\Qt_work\DialogG2\src\engine\MeteringBusController.cpp:283)
[2026-09-20 11:44:06.844] [DEBUG] [tid:2248] Metering TX: 06 03 00 0b 00 07 74 7d (C:\Qt_work\DialogG2\src\engine\MeteringBusController.cpp:283)
[2026-09-20 11:44:06.883] [DEBUG] [tid:2248] Metering TX: 02 03 00 c0 00 30 45 d1 (C:\Qt_work\DialogG2\src\engine\MeteringBusController.cpp:283)
[2026-09-20 11:44:07.012] [DEBUG] [tid:2248] Metering TX: 02 03 00 30 00 30 45 e2 (C:\Qt_work\DialogG2\src\engine\MeteringBusController.cpp:283)
[2026-09-20 11:44:07.139] [DEBUG] [tid:2248] Metering TX: 02 03 00 90 00 30 45 c0 (C:\Qt_work\DialogG2\src\engine\MeteringBusController.cpp:283)
[2026-09-20 11:44:07.267] [DEBUG] [tid:2248] Metering TX: 04 03 00 11 00 20 14 42 (C:\Qt_work\DialogG2\src\engine\MeteringBusController.cpp:283)
[2026-09-20 11:44:07.712] [DEBUG] [tid:2248] Metering TX: dd a5 03 00 ff fd 77 (C:\Qt_work\DialogG2\src\engine\MeteringBusController.cpp:283)
[2026-09-20 11:44:07.913] [DEBUG] [tid:2248] Metering TX: 06 03 00 0b 00 07 74 7d (C:\Qt_work\DialogG2\src\engine\MeteringBusController.cpp:283)
[2026-09-20 11:44:07.955] [DEBUG] [tid:2248] Metering TX: 02 03 00 c0 00 30 45 d1 (C:\Qt_work\DialogG2\src\engine\MeteringBusController.cpp:283)
[2026-09-20 11:44:08.082] [DEBUG] [tid:2248] Metering TX: 02 03 00 30 00 30 45 e2 (C:\Qt_work\DialogG2\src\engine\MeteringBusController.cpp:283)
[2026-09-20 11:44:08.210] [DEBUG] [tid:2248] Metering TX: 02 03 00 90 00 30 45 c0 (C:\Qt_work\DialogG2\src\engine\MeteringBusController.cpp:283)
[2026-09-20 11:44:08.339] [DEBUG] [tid:2248] Metering TX: 04 03 00 11 00 20 14 42 (C:\Qt_work\DialogG2\src\engine\MeteringBusController.cpp:283)
[2026-09-20 11:44:08.678] [DEBUG] [tid:2248] Metering TX: 05 03 03 00 00 02 c5 cb (C:\Qt_work\DialogG2\src\engine\MeteringBusController.cpp:283)
[2026-09-20 11:44:08.928] [DEBUG] [tid:2248] Metering TX: 06 03 00 0b 00 07 74 7d (C:\Qt_work\DialogG2\src\engine\MeteringBusController.cpp:283)
[2026-09-20 11:44:08.977] [DEBUG] [tid:2248] Metering TX: 02 03 00 c0 00 30 45 d1 (C:\Qt_work\DialogG2\src\engine\MeteringBusController.cpp:283)
[2026-09-20 11:44:09.105] [DEBUG] [tid:2248] Metering TX: 02 03 00 30 00 30 45 e2 (C:\Qt_work\DialogG2\src\engine\MeteringBusController.cpp:283)
[2026-09-20 11:44:09.233] [DEBUG] [tid:2248] Metering TX: 02 03 00 90 00 30 45 c0 (C:\Qt_work\DialogG2\src\engine\MeteringBusController.cpp:283)
[2026-09-20 11:44:09.491] [DEBUG] [tid:2248] Metering TX: 04 03 00 11 00 20 14 42 (C:\Qt_work\DialogG2\src\engine\MeteringBusController.cpp:283)
[2026-09-20 11:44:09.740] [DEBUG] [tid:2248] Metering TX: dd a5 03 00 ff fd 77 (C:\Qt_work\DialogG2\src\engine\MeteringBusController.cpp:283)
[2026-09-20 11:44:09.989] [DEBUG] [tid:2248] Metering TX: 06 03 00 0b 00 07 74 7d (C:\Qt_work\DialogG2\src\engine\MeteringBusController.cpp:283)
[2026-09-20 11:44:10.031] [DEBUG] [tid:2248] Metering TX: 02 03 00 c0 00 30 45 d1 (C:\Qt_work\DialogG2\src\engine\MeteringBusController.cpp:283)
[2026-09-20 11:44:10.160] [DEBUG] [tid:2248] Metering TX: 02 03 00 30 00 30 45 e2 (C:\Qt_work\DialogG2\src\engine\MeteringBusController.cpp:283)
[2026-09-20 11:44:10.287] [DEBUG] [tid:2248] Metering TX: 02 03 00 90 00 30 45 c0 (C:\Qt_work\DialogG2\src\engine\MeteringBusController.cpp:283)
[2026-09-20 11:44:10.416] [DEBUG] [tid:2248] Metering TX: 04 03 00 11 00 20 14 42 (C:\Qt_work\DialogG2\src\engine\MeteringBusController.cpp:283)
[2026-09-20 11:44:11.048] [DEBUG] [tid:2248] Metering TX: 06 03 00 0b 00 07 74 7d (C:\Qt_work\DialogG2\src\engine\MeteringBusController.cpp:283)
[2026-09-20 11:44:11.086] [DEBUG] [tid:2248] Metering TX: 02 03 00 c0 00 30 45 d1 (C:\Qt_work\DialogG2\src\engine\MeteringBusController.cpp:283)
[2026-09-20 11:44:11.214] [DEBUG] [tid:2248] Metering TX: 02 03 00 30 00 30 45 e2 (C:\Qt_work\DialogG2\src\engine\MeteringBusController.cpp:283)
[2026-09-20 11:44:11.342] [DEBUG] [tid:2248] Metering TX: 02 03 00 90 00 30 45 c0 (C:\Qt_work\DialogG2\src\engine\MeteringBusController.cpp:283)
[2026-09-20 11:44:11.469] [DEBUG] [tid:2248] Metering TX: 04 03 00 11 00 20 14 42 (C:\Qt_work\DialogG2\src\engine\MeteringBusController.cpp:283)
[2026-09-20 11:44:11.794] [DEBUG] [tid:2248] Metering TX: dd a5 03 00 ff fd 77 (C:\Qt_work\DialogG2\src\engine\MeteringBusController.cpp:283)
[2026-09-20 11:44:12.121] [DEBUG] [tid:2248] Metering TX: 06 03 00 0b 00 07 74 7d (C:\Qt_work\DialogG2\src\engine\MeteringBusController.cpp:283)
[2026-09-20 11:44:12.156] [DEBUG] [tid:2248] Metering TX: 02 03 00 c0 00 30 45 d1 (C:\Qt_work\DialogG2\src\engine\MeteringBusController.cpp:283)
[2026-09-20 11:44:12.402] [DEBUG] [tid:2248] Metering TX: 02 03 00 30 00 30 45 e2 (C:\Qt_work\DialogG2\src\engine\MeteringBusController.cpp:283)
[2026-09-20 11:44:12.525] [DEBUG] [tid:2248] Metering TX: 02 03 00 90 00 30 45 c0 (C:\Qt_work\DialogG2\src\engine\MeteringBusController.cpp:283)
[2026-09-20 11:44:12.778] [DEBUG] [tid:2248] Metering TX: 04 03 00 11 00 20 14 42 (C:\Qt_work\DialogG2\src\engine\MeteringBusController.cpp:283)
[2026-09-20 11:44:13.121] [DEBUG] [tid:2248] Metering TX: 06 03 00 0b 00 07 74 7d (C:\Qt_work\DialogG2\src\engine\MeteringBusController.cpp:283)
[2026-09-20 11:44:13.164] [DEBUG] [tid:2248] Metering TX: 02 03 00 c0 00 30 45 d1 (C:\Qt_work\DialogG2\src\engine\MeteringBusController.cpp:283)
[2026-09-20 11:44:13.291] [DEBUG] [tid:2248] Metering TX: 02 03 00 30 00 30 45 e2 (C:\Qt_work\DialogG2\src\engine\MeteringBusController.cpp:283)
[2026-09-20 11:44:13.419] [DEBUG] [tid:2248] Metering TX: 02 03 00 90 00 30 45 c0 (C:\Qt_work\DialogG2\src\engine\MeteringBusController.cpp:283)
[2026-09-20 11:44:13.548] [DEBUG] [tid:2248] Metering TX: 04 03 00 11 00 20 14 42 (C:\Qt_work\DialogG2\src\engine\MeteringBusController.cpp:283)
[2026-09-20 11:44:13.675] [DEBUG] [tid:2248] Metering TX: dd a5 04 00 ff fc 77 (C:\Qt_work\DialogG2\src\engine\MeteringBusController.cpp:283)
[2026-09-20 11:44:13.739] [DEBUG] [tid:2248] Metering TX: 05 03 03 00 00 02 c5 cb (C:\Qt_work\DialogG2\src\engine\MeteringBusController.cpp:283)
[2026-09-20 11:44:13.981] [DEBUG] [tid:2248] Metering TX: dd a5 03 00 ff fd 77 (C:\Qt_work\DialogG2\src\engine\MeteringBusController.cpp:283)
[2026-09-20 11:44:14.167] [DEBUG] [tid:2248] Metering TX: 06 03 00 0b 00 07 74 7d (C:\Qt_work\DialogG2\src\engine\MeteringBusController.cpp:283)
[2026-09-20 11:44:14.202] [DEBUG] [tid:2248] Metering TX: 02 03 00 c0 00 30 45 d1 (C:\Qt_work\DialogG2\src\engine\MeteringBusController.cpp:283)
[2026-09-20 11:44:14.463] [DEBUG] [tid:2248] Metering TX: 02 03 00 30 00 30 45 e2 (C:\Qt_work\DialogG2\src\engine\MeteringBusController.cpp:283)
[2026-09-20 11:44:14.586] [DEBUG] [tid:2248] Metering TX: 02 03 00 90 00 30 45 c0 (C:\Qt_work\DialogG2\src\engine\MeteringBusController.cpp:283)
[2026-09-20 11:44:14.864] [DEBUG] [tid:2248] Metering TX: 04 03 00 11 00 20 14 42 (C:\Qt_work\DialogG2\src\engine\MeteringBusController.cpp:283)
[2026-09-20 11:44:15.171] [DEBUG] [tid:2248] Metering TX: 06 03 00 0b 00 07 74 7d (C:\Qt_work\DialogG2\src\engine\MeteringBusController.cpp:283)
[2026-09-20 11:44:15.209] [DEBUG] [tid:2248] Metering TX: 02 03 00 c0 00 30 45 d1 (C:\Qt_work\DialogG2\src\engine\MeteringBusController.cpp:283)
[2026-09-20 11:44:15.337] [DEBUG] [tid:2248] Metering TX: 02 03 00 30 00 30 45 e2 (C:\Qt_work\DialogG2\src\engine\MeteringBusController.cpp:283)
[2026-09-20 11:44:15.465] [DEBUG] [tid:2248] Metering TX: 02 03 00 90 00 30 45 c0 (C:\Qt_work\DialogG2\src\engine\MeteringBusController.cpp:283)
[2026-09-20 11:44:15.593] [DEBUG] [tid:2248] Metering TX: 04 03 00 11 00 20 14 42 (C:\Qt_work\DialogG2\src\engine\MeteringBusController.cpp:283)
[2026-09-20 11:44:15.862] [DEBUG] [tid:2248] Metering TX: dd a5 03 00 ff fd 77 (C:\Qt_work\DialogG2\src\engine\MeteringBusController.cpp:283)
[2026-09-20 11:44:16.232] [DEBUG] [tid:2248] Metering TX: 06 03 00 0b 00 07 74 7d (C:\Qt_work\DialogG2\src\engine\MeteringBusController.cpp:283)
[2026-09-20 11:44:16.279] [DEBUG] [tid:2248] Metering TX: 02 03 00 c0 00 30 45 d1 (C:\Qt_work\DialogG2\src\engine\MeteringBusController.cpp:283)
[2026-09-20 11:44:16.407] [DEBUG] [tid:2248] Metering TX: 02 03 00 30 00 30 45 e2 (C:\Qt_work\DialogG2\src\engine\MeteringBusController.cpp:283)
[2026-09-20 11:44:16.536] [DEBUG] [tid:2248] Metering TX: 02 03 00 90 00 30 45 c0 (C:\Qt_work\DialogG2\src\engine\MeteringBusController.cpp:283)
[2026-09-20 11:44:16.664] [DEBUG] [tid:2248] Metering TX: 04 03 00 11 00 20 14 42 (C:\Qt_work\DialogG2\src\engine\MeteringBusController.cpp:283)
[2026-09-20 11:44:17.233] [DEBUG] [tid:2248] Metering TX: 06 03 00 0b 00 07 74 7d (C:\Qt_work\DialogG2\src\engine\MeteringBusController.cpp:283)
[2026-09-20 11:44:17.271] [DEBUG] [tid:2248] Metering TX: 02 03 00 c0 00 30 45 d1 (C:\Qt_work\DialogG2\src\engine\MeteringBusController.cpp:283)
[2026-09-20 11:44:17.398] [DEBUG] [tid:2248] Metering TX: 02 03 00 30 00 30 45 e2 (C:\Qt_work\DialogG2\src\engine\MeteringBusController.cpp:283)
[2026-09-20 11:44:17.526] [DEBUG] [tid:2248] Metering TX: 02 03 00 90 00 30 45 c0 (C:\Qt_work\DialogG2\src\engine\MeteringBusController.cpp:283)
[2026-09-20 11:44:17.653] [DEBUG] [tid:2248] Metering TX: 04 03 00 11 00 20 14 42 (C:\Qt_work\DialogG2\src\engine\MeteringBusController.cpp:283)
[2026-09-20 11:44:17.928] [DEBUG] [tid:2248] Metering TX: dd a5 03 00 ff fd 77 (C:\Qt_work\DialogG2\src\engine\MeteringBusController.cpp:283)
[2026-09-20 11:44:18.238] [DEBUG] [tid:2248] Metering TX: 06 03 00 0b 00 07 74 7d (C:\Qt_work\DialogG2\src\engine\MeteringBusController.cpp:283)
[2026-09-20 11:44:18.278] [DEBUG] [tid:2248] Metering TX: 02 03 00 c0 00 30 45 d1 (C:\Qt_work\DialogG2\src\engine\MeteringBusController.cpp:283)
[2026-09-20 11:44:18.405] [DEBUG] [tid:2248] Metering TX: 02 03 00 30 00 30 45 e2 (C:\Qt_work\DialogG2\src\engine\MeteringBusController.cpp:283)
[2026-09-20 11:44:18.534] [DEBUG] [tid:2248] Metering TX: 02 03 00 90 00 30 45 c0 (C:\Qt_work\DialogG2\src\engine\MeteringBusController.cpp:283)
[2026-09-20 11:44:18.661] [DEBUG] [tid:2248] Metering TX: 04 03 00 11 00 20 14 42 (C:\Qt_work\DialogG2\src\engine\MeteringBusController.cpp:283)
[2026-09-20 11:44:18.820] [DEBUG] [tid:2248] Metering TX: 05 03 03 00 00 02 c5 cb (C:\Qt_work\DialogG2\src\engine\MeteringBusController.cpp:283)
[2026-09-20 11:44:19.292] [DEBUG] [tid:2248] Metering TX: 06 03 00 0b 00 07 74 7d (C:\Qt_work\DialogG2\src\engine\MeteringBusController.cpp:283)
[2026-09-20 11:44:19.332] [DEBUG] [tid:2248] Metering TX: 02 03 00 c0 00 30 45 d1 (C:\Qt_work\DialogG2\src\engine\MeteringBusController.cpp:283)
[2026-09-20 11:44:19.460] [DEBUG] [tid:2248] Metering TX: 02 03 00 30 00 30 45 e2 (C:\Qt_work\DialogG2\src\engine\MeteringBusController.cpp:283)
[2026-09-20 11:44:19.587] [DEBUG] [tid:2248] Metering TX: 02 03 00 90 00 30 45 c0 (C:\Qt_work\DialogG2\src\engine\MeteringBusController.cpp:283)
[2026-09-20 11:44:19.716] [DEBUG] [tid:2248] Metering TX: 04 03 00 11 00 20 14 42 (C:\Qt_work\DialogG2\src\engine\MeteringBusController.cpp:283)
[2026-09-20 11:44:19.987] [DEBUG] [tid:2248] Metering TX: dd a5 03 00 ff fd 77 (C:\Qt_work\DialogG2\src\engine\MeteringBusController.cpp:283)
[2026-09-20 11:44:20.295] [DEBUG] [tid:2248] Metering TX: 06 03 00 0b 00 07 74 7d (C:\Qt_work\DialogG2\src\engine\MeteringBusController.cpp:283)
[2026-09-20 11:44:20.339] [DEBUG] [tid:2248] Metering TX: 02 03 00 c0 00 30 45 d1 (C:\Qt_work\DialogG2\src\engine\MeteringBusController.cpp:283)
[2026-09-20 11:44:20.466] [DEBUG] [tid:2248] Metering TX: 02 03 00 30 00 30 45 e2 (C:\Qt_work\DialogG2\src\engine\MeteringBusController.cpp:283)
[2026-09-20 11:44:20.594] [DEBUG] [tid:2248] Metering TX: 02 03 00 90 00 30 45 c0 (C:\Qt_work\DialogG2\src\engine\MeteringBusController.cpp:283)
[2026-09-20 11:44:20.722] [DEBUG] [tid:2248] Metering TX: 04 03 00 11 00 20 14 42 (C:\Qt_work\DialogG2\src\engine\MeteringBusController.cpp:283)
[2026-09-20 11:44:21.357] [DEBUG] [tid:2248] Metering TX: 06 03 00 0b 00 07 74 7d (C:\Qt_work\DialogG2\src\engine\MeteringBusController.cpp:283)
[2026-09-20 11:44:21.394] [DEBUG] [tid:2248] Metering TX: 02 03 00 c0 00 30 45 d1 (C:\Qt_work\DialogG2\src\engine\MeteringBusController.cpp:283)
[2026-09-20 11:44:21.657] [DEBUG] [tid:2248] Metering TX: 02 03 00 30 00 30 45 e2 (C:\Qt_work\DialogG2\src\engine\MeteringBusController.cpp:283)
[2026-09-20 11:44:21.793] [DEBUG] [tid:2248] Metering TX: 02 03 00 90 00 30 45 c0 (C:\Qt_work\DialogG2\src\engine\MeteringBusController.cpp:283)
[2026-09-20 11:44:21.921] [DEBUG] [tid:2248] Metering TX: 04 03 00 11 00 20 14 42 (C:\Qt_work\DialogG2\src\engine\MeteringBusController.cpp:283)
[2026-09-20 11:44:22.048] [DEBUG] [tid:2248] Metering TX: dd a5 03 00 ff fd 77 (C:\Qt_work\DialogG2\src\engine\MeteringBusController.cpp:283)
[2026-09-20 11:44:22.419] [DEBUG] [tid:2248] Metering TX: 06 03 00 0b 00 07 74 7d (C:\Qt_work\DialogG2\src\engine\MeteringBusController.cpp:283)
[2026-09-20 11:44:22.464] [DEBUG] [tid:2248] Metering TX: 02 03 00 c0 00 30 45 d1 (C:\Qt_work\DialogG2\src\engine\MeteringBusController.cpp:283)
[2026-09-20 11:44:22.592] [DEBUG] [tid:2248] Metering TX: 02 03 00 30 00 30 45 e2 (C:\Qt_work\DialogG2\src\engine\MeteringBusController.cpp:283)
[2026-09-20 11:44:22.721] [DEBUG] [tid:2248] Metering TX: 02 03 00 90 00 30 45 c0 (C:\Qt_work\DialogG2\src\engine\MeteringBusController.cpp:283)
[2026-09-20 11:44:22.847] [DEBUG] [tid:2248] Metering TX: 04 03 00 11 00 20 14 42 (C:\Qt_work\DialogG2\src\engine\MeteringBusController.cpp:283)
[2026-09-20 11:44:23.478] [DEBUG] [tid:2248] Metering TX: 06 03 00 0b 00 07 74 7d (C:\Qt_work\DialogG2\src\engine\MeteringBusController.cpp:283)
[2026-09-20 11:44:23.519] [DEBUG] [tid:2248] Metering TX: 02 03 00 c0 00 30 45 d1 (C:\Qt_work\DialogG2\src\engine\MeteringBusController.cpp:283)
[2026-09-20 11:44:23.647] [DEBUG] [tid:2248] Metering TX: 02 03 00 30 00 30 45 e2 (C:\Qt_work\DialogG2\src\engine\MeteringBusController.cpp:283)
[2026-09-20 11:44:23.775] [DEBUG] [tid:2248] Metering TX: 02 03 00 90 00 30 45 c0 (C:\Qt_work\DialogG2\src\engine\MeteringBusController.cpp:283)
[2026-09-20 11:44:23.903] [DEBUG] [tid:2248] Metering TX: 04 03 00 11 00 20 14 42 (C:\Qt_work\DialogG2\src\engine\MeteringBusController.cpp:283)
[2026-09-20 11:44:24.030] [DEBUG] [tid:2248] Metering TX: dd a5 04 00 ff fc 77 (C:\Qt_work\DialogG2\src\engine\MeteringBusController.cpp:283)
[2026-09-20 11:44:24.142] [DEBUG] [tid:2248] Metering TX: 05 03 03 00 00 02 c5 cb (C:\Qt_work\DialogG2\src\engine\MeteringBusController.cpp:283)
[2026-09-20 11:44:24.403] [DEBUG] [tid:2248] Metering TX: dd a5 03 00 ff fd 77 (C:\Qt_work\DialogG2\src\engine\MeteringBusController.cpp:283)
[2026-09-20 11:44:24.548] [DEBUG] [tid:2248] Metering TX: 06 03 00 0b 00 07 74 7d (C:\Qt_work\DialogG2\src\engine\MeteringBusController.cpp:283)
[2026-09-20 11:44:24.589] [DEBUG] [tid:2248] Metering TX: 02 03 00 c0 00 30 45 d1 (C:\Qt_work\DialogG2\src\engine\MeteringBusController.cpp:283)
[2026-09-20 11:44:24.717] [DEBUG] [tid:2248] Metering TX: 02 03 00 30 00 30 45 e2 (C:\Qt_work\DialogG2\src\engine\MeteringBusController.cpp:283)
[2026-09-20 11:44:24.846] [DEBUG] [tid:2248] Metering TX: 02 03 00 90 00 30 45 c0 (C:\Qt_work\DialogG2\src\engine\MeteringBusController.cpp:283)
[2026-09-20 11:44:24.973] [DEBUG] [tid:2248] Metering TX: 04 03 00 11 00 20 14 42 (C:\Qt_work\DialogG2\src\engine\MeteringBusController.cpp:283)
[2026-09-20 11:44:25.621] [DEBUG] [tid:2248] Metering TX: 06 03 00 0b 00 07 74 7d (C:\Qt_work\DialogG2\src\engine\MeteringBusController.cpp:283)
[2026-09-20 11:44:25.661] [DEBUG] [tid:2248] Metering TX: 02 03 00 c0 00 30 45 d1 (C:\Qt_work\DialogG2\src\engine\MeteringBusController.cpp:283)
[2026-09-20 11:44:25.788] [DEBUG] [tid:2248] Metering TX: 02 03 00 30 00 30 45 e2 (C:\Qt_work\DialogG2\src\engine\MeteringBusController.cpp:283)
[2026-09-20 11:44:25.915] [DEBUG] [tid:2248] Metering TX: 02 03 00 90 00 30 45 c0 (C:\Qt_work\DialogG2\src\engine\MeteringBusController.cpp:283)
[2026-09-20 11:44:26.044] [DEBUG] [tid:2248] Metering TX: 04 03 00 11 00 20 14 42 (C:\Qt_work\DialogG2\src\engine\MeteringBusController.cpp:283)
[2026-09-20 11:44:26.170] [DEBUG] [tid:2248] Metering TX: dd a5 03 00 ff fd 77 (C:\Qt_work\DialogG2\src\engine\MeteringBusController.cpp:283)
[2026-09-20 11:44:26.621] [DEBUG] [tid:2248] Metering TX: 06 03 00 0b 00 07 74 7d (C:\Qt_work\DialogG2\src\engine\MeteringBusController.cpp:283)
[2026-09-20 11:44:26.667] [DEBUG] [tid:2248] Metering TX: 02 03 00 c0 00 30 45 d1 (C:\Qt_work\DialogG2\src\engine\MeteringBusController.cpp:283)
[2026-09-20 11:44:26.795] [DEBUG] [tid:2248] Metering TX: 02 03 00 30 00 30 45 e2 (C:\Qt_work\DialogG2\src\engine\MeteringBusController.cpp:283)
[2026-09-20 11:44:26.923] [DEBUG] [tid:2248] Metering TX: 02 03 00 90 00 30 45 c0 (C:\Qt_work\DialogG2\src\engine\MeteringBusController.cpp:283)
[2026-09-20 11:44:27.051] [DEBUG] [tid:2248] Metering TX: 04 03 00 11 00 20 14 42 (C:\Qt_work\DialogG2\src\engine\MeteringBusController.cpp:283)
[2026-09-20 11:44:27.632] [DEBUG] [tid:2248] Metering TX: 06 03 00 0b 00 07 74 7d (C:\Qt_work\DialogG2\src\engine\MeteringBusController.cpp:283)
[2026-09-20 11:44:27.675] [DEBUG] [tid:2248] Metering TX: 02 03 00 c0 00 30 45 d1 (C:\Qt_work\DialogG2\src\engine\MeteringBusController.cpp:283)
[2026-09-20 11:44:27.802] [DEBUG] [tid:2248] Metering TX: 02 03 00 30 00 30 45 e2 (C:\Qt_work\DialogG2\src\engine\MeteringBusController.cpp:283)
[2026-09-20 11:44:27.930] [DEBUG] [tid:2248] Metering TX: 02 03 00 90 00 30 45 c0 (C:\Qt_work\DialogG2\src\engine\MeteringBusController.cpp:283)
[2026-09-20 11:44:28.057] [DEBUG] [tid:2248] Metering TX: 04 03 00 11 00 20 14 42 (C:\Qt_work\DialogG2\src\engine\MeteringBusController.cpp:283)
[2026-09-20 11:44:28.185] [DEBUG] [tid:2248] Metering TX: dd a5 03 00 ff fd 77 (C:\Qt_work\DialogG2\src\engine\MeteringBusController.cpp:283)
[2026-09-20 11:44:28.675] [DEBUG] [tid:2248] Metering TX: 06 03 00 0b 00 07 74 7d (C:\Qt_work\DialogG2\src\engine\MeteringBusController.cpp:283)
[2026-09-20 11:44:28.712] [DEBUG] [tid:2248] Metering TX: 02 03 00 c0 00 30 45 d1 (C:\Qt_work\DialogG2\src\engine\MeteringBusController.cpp:283)
[2026-09-20 11:44:28.840] [DEBUG] [tid:2248] Metering TX: 02 03 00 30 00 30 45 e2 (C:\Qt_work\DialogG2\src\engine\MeteringBusController.cpp:283)
[2026-09-20 11:44:28.968] [DEBUG] [tid:2248] Metering TX: 02 03 00 90 00 30 45 c0 (C:\Qt_work\DialogG2\src\engine\MeteringBusController.cpp:283)
[2026-09-20 11:44:29.096] [DEBUG] [tid:2248] Metering TX: 04 03 00 11 00 20 14 42 (C:\Qt_work\DialogG2\src\engine\MeteringBusController.cpp:283)
[2026-09-20 11:44:29.240] [DEBUG] [tid:2248] Metering TX: 05 03 03 00 00 02 c5 cb (C:\Qt_work\DialogG2\src\engine\MeteringBusController.cpp:283)
[2026-09-20 11:44:29.731] [DEBUG] [tid:2248] Metering TX: 06 03 00 0b 00 07 74 7d (C:\Qt_work\DialogG2\src\engine\MeteringBusController.cpp:283)
[2026-09-20 11:44:29.767] [DEBUG] [tid:2248] Metering TX: 02 03 00 c0 00 30 45 d1 (C:\Qt_work\DialogG2\src\engine\MeteringBusController.cpp:283)
[2026-09-20 11:44:30.013] [DEBUG] [tid:2248] Metering TX: 02 03 00 30 00 30 45 e2 (C:\Qt_work\DialogG2\src\engine\MeteringBusController.cpp:283)
[2026-09-20 11:44:30.151] [DEBUG] [tid:2248] Metering TX: 02 03 00 90 00 30 45 c0 (C:\Qt_work\DialogG2\src\engine\MeteringBusController.cpp:283)
[2026-09-20 11:44:30.279] [DEBUG] [tid:2248] Metering TX: 04 03 00 11 00 20 14 42 (C:\Qt_work\DialogG2\src\engine\MeteringBusController.cpp:283)
[2026-09-20 11:44:30.407] [DEBUG] [tid:2248] Metering TX: dd a5 03 00 ff fd 77 (C:\Qt_work\DialogG2\src\engine\MeteringBusController.cpp:283)
[2026-09-20 11:44:30.740] [DEBUG] [tid:2248] Metering TX: 06 03 00 0b 00 07 74 7d (C:\Qt_work\DialogG2\src\engine\MeteringBusController.cpp:283)
[2026-09-20 11:44:30.790] [DEBUG] [tid:2248] Metering TX: 02 03 00 c0 00 30 45 d1 (C:\Qt_work\DialogG2\src\engine\MeteringBusController.cpp:283)
[2026-09-20 11:44:30.918] [DEBUG] [tid:2248] Metering TX: 02 03 00 30 00 30 45 e2 (C:\Qt_work\DialogG2\src\engine\MeteringBusController.cpp:283)
[2026-09-20 11:44:31.046] [DEBUG] [tid:2248] Metering TX: 02 03 00 90 00 30 45 c0 (C:\Qt_work\DialogG2\src\engine\MeteringBusController.cpp:283)
[2026-09-20 11:44:31.173] [DEBUG] [tid:2248] Metering TX: 04 03 00 11 00 20 14 42 (C:\Qt_work\DialogG2\src\engine\MeteringBusController.cpp:283)
[2026-09-20 11:44:31.801] [DEBUG] [tid:2248] Metering TX: 06 03 00 0b 00 07 74 7d (C:\Qt_work\DialogG2\src\engine\MeteringBusController.cpp:283)
[2026-09-20 11:44:31.845] [DEBUG] [tid:2248] Metering TX: 02 03 00 c0 00 30 45 d1 (C:\Qt_work\DialogG2\src\engine\MeteringBusController.cpp:283)
[2026-09-20 11:44:31.972] [DEBUG] [tid:2248] Metering TX: 02 03 00 30 00 30 45 e2 (C:\Qt_work\DialogG2\src\engine\MeteringBusController.cpp:283)
[2026-09-20 11:44:32.101] [DEBUG] [tid:2248] Metering TX: 02 03 00 90 00 30 45 c0 (C:\Qt_work\DialogG2\src\engine\MeteringBusController.cpp:283)
[2026-09-20 11:44:32.228] [DEBUG] [tid:2248] Metering TX: 04 03 00 11 00 20 14 42 (C:\Qt_work\DialogG2\src\engine\MeteringBusController.cpp:283)
