[2026-09-20 11:44:03.551] [WARNING] [tid:2248] Relay bus: Referenced serial device does not exist.
[2026-09-20 11:44:03.551] [WARNING] [tid:2248] Relay bus: Не удается найти указанный файл.
Metering TX: 06 03 00 0b 00 07 74 7d
Metering TX: 02 03 00 c0 00 30 45 d1
Metering TX: 02 03 00 30 00 30 45 e2
Metering TX: 02 03 00 90 00 30 45 c0
Metering TX: 04 03 00 11 00 20 14 42
Metering TX: 05 03 03 00 00 02 c5 cb
[2026-09-20 11:44:04.500] [WARNING] [tid:2248] Metering bus: Metering timeout: type=0 slave=5 start=0x300 count=2 pending=
Metering TX: dd a5 03 00 ff fd 77
Metering TX: dd a5 04 00 ff fc 77
Metering TX: 06 03 00 0b 00 07 74 7d
Metering TX: 02 03 00 c0 00 30 45 d1
Metering TX: 02 03 00 30 00 30 45 e2
Metering TX: 02 03 00 90 00 30 45 c0
Metering TX: 04 03 00 11 00 20 14 42
Metering TX: dd a5 03 00 ff fd 77
Metering TX: 06 03 00 0b 00 07 74 7d
Metering TX: 02 03 00 c0 00 30 45 d1
Metering TX: 02 03 00 30 00 30 45 e2
Metering TX: 02 03 00 90 00 30 45 c0
Metering TX: 04 03 00 11 00 20 14 42
Metering TX: 06 03 00 0b 00 07 74 7d
Metering TX: 02 03 00 c0 00 30 45 d1
Metering TX: 02 03 00 30 00 30 45 e2
Metering TX: 02 03 00 90 00 30 45 c0
Metering TX: 04 03 00 11 00 20 14 42
Metering TX: dd a5 03 00 ff fd 77
Metering TX: 06 03 00 0b 00 07 74 7d
Metering TX: 02 03 00 c0 00 30 45 d1
Metering TX: 02 03 00 30 00 30 45 e2
Metering TX: 02 03 00 90 00 30 45 c0
Metering TX: 04 03 00 11 00 20 14 42
Metering TX: 05 03 03 00 00 02 c5 cb
[2026-09-20 11:44:08.925] [WARNING] [tid:2248] Metering bus: Metering timeout: type=0 slave=5 start=0x300 count=2 pending=
Metering TX: 06 03 00 0b 00 07 74 7d
Metering TX: 02 03 00 c0 00 30 45 d1
Metering TX: 02 03 00 30 00 30 45 e2
Metering TX: 02 03 00 90 00 30 45 c0
[2026-09-20 11:44:09.490] [WARNING] [tid:2248] Metering bus: Metering timeout: type=0 slave=2 start=0x90 count=48 pending=
Metering TX: 04 03 00 11 00 20 14 42
Metering TX: dd a5 03 00 ff fd 77
Metering TX: 06 03 00 0b 00 07 74 7d
Metering TX: 02 03 00 c0 00 30 45 d1
Metering TX: 02 03 00 30 00 30 45 e2
Metering TX: 02 03 00 90 00 30 45 c0
Metering TX: 04 03 00 11 00 20 14 42
Metering TX: 06 03 00 0b 00 07 74 7d
Metering TX: 02 03 00 c0 00 30 45 d1
Metering TX: 02 03 00 30 00 30 45 e2
Metering TX: 02 03 00 90 00 30 45 c0
Metering TX: 04 03 00 11 00 20 14 42
Metering TX: dd a5 03 00 ff fd 77
Metering TX: 06 03 00 0b 00 07 74 7d
Metering TX: 02 03 00 c0 00 30 45 d1
[2026-09-20 11:44:12.401] [WARNING] [tid:2248] Metering bus: Metering timeout: type=0 slave=2 start=0xc0 count=48 pending=
Metering TX: 02 03 00 30 00 30 45 e2
Metering TX: 02 03 00 90 00 30 45 c0
[2026-09-20 11:44:12.777] [WARNING] [tid:2248] Metering bus: Metering timeout: type=0 slave=2 start=0x90 count=48 pending=
Metering TX: 04 03 00 11 00 20 14 42
Metering TX: 06 03 00 0b 00 07 74 7d
Metering TX: 02 03 00 c0 00 30 45 d1
Metering TX: 02 03 00 30 00 30 45 e2
Metering TX: 02 03 00 90 00 30 45 c0
Metering TX: 04 03 00 11 00 20 14 42
Metering TX: dd a5 04 00 ff fc 77
Metering TX: 05 03 03 00 00 02 c5 cb
[2026-09-20 11:44:13.979] [WARNING] [tid:2248] Metering bus: Metering timeout: type=0 slave=5 start=0x300 count=2 pending=
Metering TX: dd a5 03 00 ff fd 77
Metering TX: 06 03 00 0b 00 07 74 7d
Metering TX: 02 03 00 c0 00 30 45 d1
[2026-09-20 11:44:14.461] [WARNING] [tid:2248] Metering bus: Metering timeout: type=0 slave=2 start=0xc0 count=48 pending=
Metering TX: 02 03 00 30 00 30 45 e2
Metering TX: 02 03 00 90 00 30 45 c0
[2026-09-20 11:44:14.863] [WARNING] [tid:2248] Metering bus: Metering timeout: type=0 slave=2 start=0x90 count=48 pending=
Metering TX: 04 03 00 11 00 20 14 42
Metering TX: 06 03 00 0b 00 07 74 7d
Metering TX: 02 03 00 c0 00 30 45 d1
Metering TX: 02 03 00 30 00 30 45 e2
Metering TX: 02 03 00 90 00 30 45 c0
Metering TX: 04 03 00 11 00 20 14 42
Metering TX: dd a5 03 00 ff fd 77
Metering TX: 06 03 00 0b 00 07 74 7d
Metering TX: 02 03 00 c0 00 30 45 d1
Metering TX: 02 03 00 30 00 30 45 e2
Metering TX: 02 03 00 90 00 30 45 c0
Metering TX: 04 03 00 11 00 20 14 42
Metering TX: 06 03 00 0b 00 07 74 7d
Metering TX: 02 03 00 c0 00 30 45 d1
Metering TX: 02 03 00 30 00 30 45 e2
Metering TX: 02 03 00 90 00 30 45 c0
Metering TX: 04 03 00 11 00 20 14 42
Metering TX: dd a5 03 00 ff fd 77
Metering TX: 06 03 00 0b 00 07 74 7d
Metering TX: 02 03 00 c0 00 30 45 d1
Metering TX: 02 03 00 30 00 30 45 e2
Metering TX: 02 03 00 90 00 30 45 c0
Metering TX: 04 03 00 11 00 20 14 42
Metering TX: 05 03 03 00 00 02 c5 cb
[2026-09-20 11:44:19.090] [WARNING] [tid:2248] Metering bus: Metering timeout: type=0 slave=5 start=0x300 count=2 pending=
Metering TX: 06 03 00 0b 00 07 74 7d
Metering TX: 02 03 00 c0 00 30 45 d1
Metering TX: 02 03 00 30 00 30 45 e2
Metering TX: 02 03 00 90 00 30 45 c0
Metering TX: 04 03 00 11 00 20 14 42
[2026-09-20 11:44:19.986] [WARNING] [tid:2248] Metering bus: Metering timeout: type=0 slave=4 start=0x11 count=32 pending=
Metering TX: dd a5 03 00 ff fd 77
Metering TX: 06 03 00 0b 00 07 74 7d
Metering TX: 02 03 00 c0 00 30 45 d1
Metering TX: 02 03 00 30 00 30 45 e2
Metering TX: 02 03 00 90 00 30 45 c0
Metering TX: 04 03 00 11 00 20 14 42
Metering TX: 06 03 00 0b 00 07 74 7d
Metering TX: 02 03 00 c0 00 30 45 d1
[2026-09-20 11:44:21.654] [WARNING] [tid:2248] Metering bus: Metering timeout: type=0 slave=2 start=0xc0 count=48 pending=
Metering TX: 02 03 00 30 00 30 45 e2
Metering TX: 02 03 00 90 00 30 45 c0
Metering TX: 04 03 00 11 00 20 14 42
Metering TX: dd a5 03 00 ff fd 77
Metering TX: 06 03 00 0b 00 07 74 7d
Metering TX: 02 03 00 c0 00 30 45 d1
Metering TX: 02 03 00 30 00 30 45 e2
Metering TX: 02 03 00 90 00 30 45 c0
Metering TX: 04 03 00 11 00 20 14 42
Metering TX: 06 03 00 0b 00 07 74 7d
Metering TX: 02 03 00 c0 00 30 45 d1
Metering TX: 02 03 00 30 00 30 45 e2
Metering TX: 02 03 00 90 00 30 45 c0
Metering TX: 04 03 00 11 00 20 14 42
Metering TX: dd a5 04 00 ff fc 77
Metering TX: 05 03 03 00 00 02 c5 cb
[2026-09-20 11:44:24.402] [WARNING] [tid:2248] Metering bus: Metering timeout: type=0 slave=5 start=0x300 count=2 pending=
Metering TX: dd a5 03 00 ff fd 77
Metering TX: 06 03 00 0b 00 07 74 7d
Metering TX: 02 03 00 c0 00 30 45 d1
Metering TX: 02 03 00 30 00 30 45 e2
Metering TX: 02 03 00 90 00 30 45 c0
Metering TX: 04 03 00 11 00 20 14 42
Metering TX: 06 03 00 0b 00 07 74 7d
Metering TX: 02 03 00 c0 00 30 45 d1
Metering TX: 02 03 00 30 00 30 45 e2
Metering TX: 02 03 00 90 00 30 45 c0
Metering TX: 04 03 00 11 00 20 14 42
[2026-09-20 11:44:26.121] [CRITICAL] [tid:2248] State write failed: Отказано в доступе.
Metering TX: dd a5 03 00 ff fd 77
Metering TX: 06 03 00 0b 00 07 74 7d
Metering TX: 02 03 00 c0 00 30 45 d1
Metering TX: 02 03 00 30 00 30 45 e2
Metering TX: 02 03 00 90 00 30 45 c0
Metering TX: 04 03 00 11 00 20 14 42
Metering TX: 06 03 00 0b 00 07 74 7d
Metering TX: 02 03 00 c0 00 30 45 d1
Metering TX: 02 03 00 30 00 30 45 e2
Metering TX: 02 03 00 90 00 30 45 c0
Metering TX: 04 03 00 11 00 20 14 42
Metering TX: dd a5 03 00 ff fd 77
Metering TX: 06 03 00 0b 00 07 74 7d
Metering TX: 02 03 00 c0 00 30 45 d1
Metering TX: 02 03 00 30 00 30 45 e2
Metering TX: 02 03 00 90 00 30 45 c0
Metering TX: 04 03 00 11 00 20 14 42
Metering TX: 05 03 03 00 00 02 c5 cb
[2026-09-20 11:44:29.482] [WARNING] [tid:2248] Metering bus: Metering timeout: type=0 slave=5 start=0x300 count=2 pending=
Metering TX: 06 03 00 0b 00 07 74 7d
Metering TX: 02 03 00 c0 00 30 45 d1
[2026-09-20 11:44:30.011] [WARNING] [tid:2248] Metering bus: Metering timeout: type=0 slave=2 start=0xc0 count=48 pending=
Metering TX: 02 03 00 30 00 30 45 e2
Metering TX: 02 03 00 90 00 30 45 c0
Metering TX: 04 03 00 11 00 20 14 42
Metering TX: dd a5 03 00 ff fd 77
Metering TX: 06 03 00 0b 00 07 74 7d
Metering TX: 02 03 00 c0 00 30 45 d1
Metering TX: 02 03 00 30 00 30 45 e2
Metering TX: 02 03 00 90 00 30 45 c0
Metering TX: 04 03 00 11 00 20 14 42
Metering TX: 06 03 00 0b 00 07 74 7d
Metering TX: 02 03 00 c0 00 30 45 d1
Metering TX: 02 03 00 30 00 30 45 e2
Metering TX: 02 03 00 90 00 30 45 c0
Metering TX: 04 03 00 11 00 20 14 42
Metering TX: dd a5 03 00 ff fd 77
Metering TX: 06 03 00 0b 00 07 74 7d
Metering TX: 02 03 00 c0 00 30 45 d1
Metering TX: 02 03 00 30 00 30 45 e2
Metering TX: 02 03 00 90 00 30 45 c0
Metering TX: 04 03 00 11 00 20 14 42
Metering TX: dd a5 04 00 ff fc 77
Metering TX: 05 03 03 00 00 02 c5 cb
[2026-09-20 11:44:34.116] [WARNING] [tid:2248] Metering bus: Metering timeout: type=0 slave=5 start=0x300 count=2 pending=
Metering TX: 06 03 00 0b 00 07 74 7d
Metering TX: 02 03 00 c0 00 30 45 d1
Metering TX: 02 03 00 30 00 30 45 e2
Metering TX: 02 03 00 90 00 30 45 c0
Metering TX: 04 03 00 11 00 20 14 42
Metering TX: dd a5 03 00 ff fd 77
Metering TX: 06 03 00 0b 00 07 74 7d
Metering TX: 02 03 00 c0 00 30 45 d1
Metering TX: 02 03 00 30 00 30 45 e2
Metering TX: 02 03 00 90 00 30 45 c0
Metering TX: 04 03 00 11 00 20 14 42
Metering TX: 06 03 00 0b 00 07 74 7d
Metering TX: 02 03 00 c0 00 30 45 d1
Metering TX: 02 03 00 30 00 30 45 e2
Metering TX: 02 03 00 90 00 30 45 c0
Metering TX: 04 03 00 11 00 20 14 42
Metering TX: dd a5 03 00 ff fd 77
Metering TX: 06 03 00 0b 00 07 74 7d
Metering TX: 02 03 00 c0 00 30 45 d1
[2026-09-20 11:44:37.327] [WARNING] [tid:2248] Metering bus: Metering timeout: type=0 slave=2 start=0xc0 count=48 pending=
Metering TX: 02 03 00 30 00 30 45 e2
Metering TX: 02 03 00 90 00 30 45 c0
Metering TX: 04 03 00 11 00 20 14 42
Metering TX: 06 03 00 0b 00 07 74 7d
Metering TX: 02 03 00 c0 00 30 45 d1
Metering TX: 02 03 00 30 00 30 45 e2
Metering TX: 02 03 00 90 00 30 45 c0
Metering TX: 04 03 00 11 00 20 14 42
Metering TX: dd a5 03 00 ff fd 77
Metering TX: 05 03 03 00 00 02 c5 cb
[2026-09-20 11:44:39.139] [WARNING] [tid:2248] Metering bus: Metering timeout: type=0 slave=5 start=0x300 count=2 pending=
Metering TX: 06 03 00 0b 00 07 74 7d
Metering TX: 02 03 00 c0 00 30 45 d1
Metering TX: 02 03 00 30 00 30 45 e2
Metering TX: 02 03 00 90 00 30 45 c0
Metering TX: 04 03 00 11 00 20 14 42
Metering TX: 06 03 00 0b 00 07 74 7d
Metering TX: 02 03 00 c0 00 30 45 d1
[2026-09-20 11:44:40.505] [WARNING] [tid:2248] Metering bus: Metering timeout: type=0 slave=2 start=0xc0 count=48 pending=
Metering TX: 02 03 00 30 00 30 45 e2
Metering TX: 02 03 00 90 00 30 45 c0
Metering TX: 04 03 00 11 00 20 14 42
Metering TX: dd a5 03 00 ff fd 77
Metering TX: 06 03 00 0b 00 07 74 7d
Metering TX: 02 03 00 c0 00 30 45 d1
Metering TX: 02 03 00 30 00 30 45 e2
Metering TX: 02 03 00 90 00 30 45 c0
Metering TX: 04 03 00 11 00 20 14 42
[2026-09-20 11:44:41.884] [WARNING] [tid:2248] Metering bus: Metering timeout: type=0 slave=4 start=0x11 count=32 pending=
Metering TX: 06 03 00 0b 00 07 74 7d
Metering TX: 02 03 00 c0 00 30 45 d1
Metering TX: 02 03 00 30 00 30 45 e2
Metering TX: 02 03 00 90 00 30 45 c0
Metering TX: 04 03 00 11 00 20 14 42
Metering TX: dd a5 03 00 ff fd 77
Metering TX: 06 03 00 0b 00 07 74 7d
Metering TX: 02 03 00 c0 00 30 45 d1
Metering TX: 02 03 00 30 00 30 45 e2
Metering TX: 02 03 00 90 00 30 45 c0
Metering TX: 04 03 00 11 00 20 14 42
Metering TX: dd a5 04 00 ff fc 77
Metering TX: 05 03 03 00 00 02 c5 cb
[2026-09-20 11:44:44.279] [WARNING] [tid:2248] Metering bus: Metering timeout: type=0 slave=5 start=0x300 count=2 pending=
Metering TX: 06 03 00 0b 00 07 74 7d
Metering TX: 02 03 00 c0 00 30 45 d1
Metering TX: 02 03 00 30 00 30 45 e2
Metering TX: 02 03 00 90 00 30 45 c0
Metering TX: 04 03 00 11 00 20 14 42
[2026-09-20 11:44:45.084] [WARNING] [tid:2248] Metering bus: Metering timeout: type=0 slave=4 start=0x11 count=32 pending=
Metering TX: dd a5 03 00 ff fd 77
Metering TX: 06 03 00 0b 00 07 74 7d
Metering TX: 02 03 00 c0 00 30 45 d1
Metering TX: 02 03 00 30 00 30 45 e2
Metering TX: 02 03 00 90 00 30 45 c0
Metering TX: 04 03 00 11 00 20 14 42
Metering TX: 06 03 00 0b 00 07 74 7d
Metering TX: 02 03 00 c0 00 30 45 d1
Metering TX: 02 03 00 30 00 30 45 e2
Metering TX: 02 03 00 90 00 30 45 c0
Metering TX: 04 03 00 11 00 20 14 42
Metering TX: dd a5 03 00 ff fd 77
Metering TX: 06 03 00 0b 00 07 74 7d
Metering TX: 02 03 00 c0 00 30 45 d1
Metering TX: 02 03 00 30 00 30 45 e2
Metering TX: 02 03 00 90 00 30 45 c0
Metering TX: 04 03 00 11 00 20 14 42
Metering TX: 06 03 00 0b 00 07 74 7d
Metering TX: 02 03 00 c0 00 30 45 d1
Metering TX: 02 03 00 30 00 30 45 e2
Metering TX: 02 03 00 90 00 30 45 c0
Metering TX: 04 03 00 11 00 20 14 42
Metering TX: dd a5 03 00 ff fd 77
Metering TX: 05 03 03 00 00 02 c5 cb
[2026-09-20 11:44:49.315] [WARNING] [tid:2248] Metering bus: Metering timeout: type=0 slave=5 start=0x300 count=2 pending=
Metering TX: 06 03 00 0b 00 07 74 7d
Metering TX: 02 03 00 c0 00 30 45 d1
Metering TX: 02 03 00 30 00 30 45 e2
Metering TX: 02 03 00 90 00 30 45 c0
Metering TX: 04 03 00 11 00 20 14 42
Metering TX: 06 03 00 0b 00 07 74 7d
Metering TX: 02 03 00 c0 00 30 45 d1
Metering TX: 02 03 00 30 00 30 45 e2
Metering TX: 02 03 00 90 00 30 45 c0
Metering TX: 04 03 00 11 00 20 14 42
Metering TX: dd a5 03 00 ff fd 77
Metering TX: 06 03 00 0b 00 07 74 7d
Metering TX: 02 03 00 c0 00 30 45 d1
Metering TX: 02 03 00 30 00 30 45 e2
Metering TX: 02 03 00 90 00 30 45 c0
Metering TX: 04 03 00 11 00 20 14 42
Metering TX: 06 03 00 0b 00 07 74 7d
Metering TX: 02 03 00 c0 00 30 45 d1
Metering TX: 02 03 00 30 00 30 45 e2
Metering TX: 02 03 00 90 00 30 45 c0
Metering TX: 04 03 00 11 00 20 14 42
Metering TX: dd a5 03 00 ff fd 77
Metering TX: 06 03 00 0b 00 07 74 7d
Metering TX: 02 03 00 c0 00 30 45 d1
Metering TX: 02 03 00 30 00 30 45 e2
Metering TX: 02 03 00 90 00 30 45 c0
Metering TX: 04 03 00 11 00 20 14 42
Metering TX: dd a5 04 00 ff fc 77
Metering TX: 05 03 03 00 00 02 c5 cb
[2026-09-20 11:44:54.432] [WARNING] [tid:2248] Metering bus: Metering timeout: type=0 slave=5 start=0x300 count=2 pending=
Metering TX: 06 03 00 0b 00 07 74 7d
Metering TX: 02 03 00 c0 00 30 45 d1
Metering TX: 02 03 00 30 00 30 45 e2
Metering TX: 02 03 00 90 00 30 45 c0
Metering TX: 04 03 00 11 00 20 14 42
Metering TX: dd a5 03 00 ff fd 77
Metering TX: 06 03 00 0b 00 07 74 7d
Metering TX: 02 03 00 c0 00 30 45 d1
Metering TX: 02 03 00 30 00 30 45 e2
Metering TX: 02 03 00 90 00 30 45 c0
Metering TX: 04 03 00 11 00 20 14 42
Metering TX: 06 03 00 0b 00 07 74 7d
Metering TX: 02 03 00 c0 00 30 45 d1
Metering TX: 02 03 00 30 00 30 45 e2
Metering TX: 02 03 00 90 00 30 45 c0
Metering TX: 04 03 00 11 00 20 14 42
Metering TX: dd a5 03 00 ff fd 77
Metering TX: 06 03 00 0b 00 07 74 7d
Metering TX: 02 03 00 c0 00 30 45 d1
[2026-09-20 11:44:57.964] [WARNING] [tid:2248] Metering bus: Metering timeout: type=0 slave=2 start=0xc0 count=48 pending=
Metering TX: 02 03 00 30 00 30 45 e2
Metering TX: 02 03 00 90 00 30 45 c0
Metering TX: 04 03 00 11 00 20 14 42
[2026-09-20 11:44:58.485] [WARNING] [tid:2248] Metering bus: Metering timeout: type=0 slave=4 start=0x11 count=32 pending=
Metering TX: dd a5 03 00 ff fd 77
Metering TX: 06 03 00 0b 00 07 74 7d
Metering TX: 02 03 00 c0 00 30 45 d1
Metering TX: 02 03 00 30 00 30 45 e2
Metering TX: 02 03 00 90 00 30 45 c0
Metering TX: 04 03 00 11 00 20 14 42
Metering TX: 05 03 03 00 00 02 c5 cb
[2026-09-20 11:44:59.586] [WARNING] [tid:2248] Metering bus: Metering timeout: type=0 slave=5 start=0x300 count=2 pending=
Metering TX: 06 03 00 0b 00 07 74 7d
Metering TX: 02 03 00 c0 00 30 45 d1
Metering TX: 02 03 00 30 00 30 45 e2
Metering TX: 02 03 00 90 00 30 45 c0
Metering TX: 04 03 00 11 00 20 14 42
Metering TX: dd a5 03 00 ff fd 77
Metering TX: 06 03 00 0b 00 07 74 7d
Metering TX: 02 03 00 c0 00 30 45 d1
Metering TX: 02 03 00 30 00 30 45 e2
Metering TX: 02 03 00 90 00 30 45 c0
Metering TX: 04 03 00 11 00 20 14 42
Metering TX: 06 03 00 0b 00 07 74 7d
Metering TX: 02 03 00 c0 00 30 45 d1
Metering TX: 02 03 00 30 00 30 45 e2
Metering TX: 02 03 00 90 00 30 45 c0
Metering TX: 04 03 00 11 00 20 14 42
Metering TX: dd a5 03 00 ff fd 77
Metering TX: 06 03 00 0b 00 07 74 7d
Metering TX: 02 03 00 c0 00 30 45 d1
Metering TX: 02 03 00 30 00 30 45 e2
Metering TX: 02 03 00 90 00 30 45 c0
Metering TX: 04 03 00 11 00 20 14 42
Metering TX: dd a5 04 00 ff fc 77
Metering TX: 06 03 00 0b 00 07 74 7d
Metering TX: 02 03 00 c0 00 30 45 d1
Metering TX: 02 03 00 30 00 30 45 e2
Metering TX: 02 03 00 90 00 30 45 c0
Metering TX: 04 03 00 11 00 20 14 42
[2026-09-20 11:45:04.588] [WARNING] [tid:2248] Metering bus: Metering timeout: type=0 slave=4 start=0x11 count=32 pending=
Metering TX: 05 03 03 00 00 02 c5 cb
[2026-09-20 11:45:04.843] [WARNING] [tid:2248] Metering bus: Metering timeout: type=0 slave=5 start=0x300 count=2 pending=
Metering TX: dd a5 03 00 ff fd 77
Metering TX: 06 03 00 0b 00 07 74 7d
Metering TX: 02 03 00 c0 00 30 45 d1
Metering TX: 02 03 00 30 00 30 45 e2
Metering TX: 02 03 00 90 00 30 45 c0
Metering TX: 04 03 00 11 00 20 14 42
Metering TX: 06 03 00 0b 00 07 74 7d
Metering TX: 02 03 00 c0 00 30 45 d1
Metering TX: 02 03 00 30 00 30 45 e2
Metering TX: 02 03 00 90 00 30 45 c0
Metering TX: 04 03 00 11 00 20 14 42
Metering TX: dd a5 03 00 ff fd 77
Metering TX: 06 03 00 0b 00 07 74 7d
Metering TX: 02 03 00 c0 00 30 45 d1
Metering TX: 02 03 00 30 00 30 45 e2
Metering TX: 02 03 00 90 00 30 45 c0
Metering TX: 04 03 00 11 00 20 14 42
Metering TX: 06 03 00 0b 00 07 74 7d
Metering TX: 02 03 00 c0 00 30 45 d1
Metering TX: 02 03 00 30 00 30 45 e2
Metering TX: 02 03 00 90 00 30 45 c0
Metering TX: 04 03 00 11 00 20 14 42
Metering TX: dd a5 03 00 ff fd 77
Metering TX: 06 03 00 0b 00 07 74 7d
Metering TX: 02 03 00 c0 00 30 45 d1
Metering TX: 02 03 00 30 00 30 45 e2
Metering TX: 02 03 00 90 00 30 45 c0
Metering TX: 04 03 00 11 00 20 14 42
Metering TX: 05 03 03 00 00 02 c5 cb
[2026-09-20 11:45:09.800] [WARNING] [tid:2248] Metering bus: Metering timeout: type=0 slave=5 start=0x300 count=2 pending=
Metering TX: 06 03 00 0b 00 07 74 7d
Metering TX: 02 03 00 c0 00 30 45 d1
Metering TX: 02 03 00 30 00 30 45 e2
Metering TX: 02 03 00 90 00 30 45 c0
Metering TX: 04 03 00 11 00 20 14 42
Metering TX: dd a5 03 00 ff fd 77
Metering TX: 06 03 00 0b 00 07 74 7d
Metering TX: 02 03 00 c0 00 30 45 d1
Metering TX: 02 03 00 30 00 30 45 e2
Metering TX: 02 03 00 90 00 30 45 c0
Metering TX: 04 03 00 11 00 20 14 42
Metering TX: 06 03 00 0b 00 07 74 7d
Metering TX: 02 03 00 c0 00 30 45 d1
Metering TX: 02 03 00 30 00 30 45 e2
Metering TX: 02 03 00 90 00 30 45 c0
Metering TX: 04 03 00 11 00 20 14 42
Metering TX: dd a5 03 00 ff fd 77
Metering TX: 06 03 00 0b 00 07 74 7d
Metering TX: 02 03 00 c0 00 30 45 d1
Metering TX: 02 03 00 30 00 30 45 e2
Metering TX: 02 03 00 90 00 30 45 c0
Metering TX: 04 03 00 11 00 20 14 42
Metering TX: dd a5 04 00 ff fc 77
Metering TX: 05 03 03 00 00 02 c5 cb
[2026-09-20 11:45:14.308] [WARNING] [tid:2248] Metering bus: Metering timeout: type=0 slave=5 start=0x300 count=2 pending=
Metering TX: 06 03 00 0b 00 07 74 7d
Metering TX: 02 03 00 c0 00 30 45 d1
Metering TX: 02 03 00 30 00 30 45 e2
Metering TX: 02 03 00 90 00 30 45 c0
Metering TX: 04 03 00 11 00 20 14 42
Metering TX: dd a5 03 00 ff fd 77
Metering TX: 06 03 00 0b 00 07 74 7d
Metering TX: 02 03 00 c0 00 30 45 d1
Metering TX: 02 03 00 30 00 30 45 e2
Metering TX: 02 03 00 90 00 30 45 c0
Metering TX: 04 03 00 11 00 20 14 42
Metering TX: 06 03 00 0b 00 07 74 7d
Metering TX: 02 03 00 c0 00 30 45 d1
Metering TX: 02 03 00 30 00 30 45 e2
Metering TX: 02 03 00 90 00 30 45 c0
Metering TX: 04 03 00 11 00 20 14 42
Metering TX: dd a5 03 00 ff fd 77
Metering TX: 06 03 00 0b 00 07 74 7d
Metering TX: 02 03 00 c0 00 30 45 d1
Metering TX: 02 03 00 30 00 30 45 e2
Metering TX: 02 03 00 90 00 30 45 c0
Metering TX: 04 03 00 11 00 20 14 42
Metering TX: 06 03 00 0b 00 07 74 7d
Metering TX: 02 03 00 c0 00 30 45 d1
Metering TX: 02 03 00 30 00 30 45 e2
Metering TX: 02 03 00 90 00 30 45 c0
Metering TX: 04 03 00 11 00 20 14 42
Metering TX: dd a5 03 00 ff fd 77
Metering TX: 05 03 03 00 00 02 c5 cb
[2026-09-20 11:45:19.367] [WARNING] [tid:2248] Metering bus: Metering timeout: type=0 slave=5 start=0x300 count=2 pending=
Metering TX: 06 03 00 0b 00 07 74 7d
Metering TX: 02 03 00 c0 00 30 45 d1
Metering TX: 02 03 00 30 00 30 45 e2
Metering TX: 02 03 00 90 00 30 45 c0
Metering TX: 04 03 00 11 00 20 14 42
Metering TX: 06 03 00 0b 00 07 74 7d
Metering TX: 02 03 00 c0 00 30 45 d1
Metering TX: 02 03 00 30 00 30 45 e2
Metering TX: 02 03 00 90 00 30 45 c0
Metering TX: 04 03 00 11 00 20 14 42
Metering TX: dd a5 03 00 ff fd 77
Metering TX: 06 03 00 0b 00 07 74 7d
Metering TX: 02 03 00 c0 00 30 45 d1
Metering TX: 02 03 00 30 00 30 45 e2
Metering TX: 02 03 00 90 00 30 45 c0
Metering TX: 04 03 00 11 00 20 14 42
Metering TX: 06 03 00 0b 00 07 74 7d
Metering TX: 02 03 00 c0 00 30 45 d1
Metering TX: 02 03 00 30 00 30 45 e2
Metering TX: 02 03 00 90 00 30 45 c0
Metering TX: 04 03 00 11 00 20 14 42
Metering TX: dd a5 03 00 ff fd 77
Metering TX: 06 03 00 0b 00 07 74 7d
Metering TX: 02 03 00 c0 00 30 45 d1
Metering TX: 02 03 00 30 00 30 45 e2
Metering TX: 02 03 00 90 00 30 45 c0
Metering TX: 04 03 00 11 00 20 14 42
Metering TX: dd a5 04 00 ff fc 77
Metering TX: 05 03 03 00 00 02 c5 cb
[2026-09-20 11:45:24.446] [WARNING] [tid:2248] Metering bus: Metering timeout: type=0 slave=5 start=0x300 count=2 pending=
Metering TX: 06 03 00 0b 00 07 74 7d
Metering TX: 02 03 00 c0 00 30 45 d1
[2026-09-20 11:45:24.732] [WARNING] [tid:2248] Metering bus: Metering timeout: type=0 slave=2 start=0xc0 count=48 pending=
Metering TX: 02 03 00 30 00 30 45 e2
Metering TX: 02 03 00 90 00 30 45 c0
Metering TX: 04 03 00 11 00 20 14 42
Metering TX: dd a5 03 00 ff fd 77
Metering TX: 06 03 00 0b 00 07 74 7d
Metering TX: 02 03 00 c0 00 30 45 d1
Metering TX: 02 03 00 30 00 30 45 e2
Metering TX: 02 03 00 90 00 30 45 c0
Metering TX: 04 03 00 11 00 20 14 42
Metering TX: 06 03 00 0b 00 07 74 7d
Metering TX: 02 03 00 c0 00 30 45 d1
Metering TX: 02 03 00 30 00 30 45 e2
Metering TX: 02 03 00 90 00 30 45 c0
Metering TX: 04 03 00 11 00 20 14 42
Metering TX: dd a5 03 00 ff fd 77
Metering TX: 06 03 00 0b 00 07 74 7d
Metering TX: 02 03 00 c0 00 30 45 d1
Metering TX: 02 03 00 30 00 30 45 e2
Metering TX: 02 03 00 90 00 30 45 c0
Metering TX: 04 03 00 11 00 20 14 42
Metering TX: 06 03 00 0b 00 07 74 7d
Metering TX: 02 03 00 c0 00 30 45 d1
Metering TX: 02 03 00 30 00 30 45 e2
Metering TX: 02 03 00 90 00 30 45 c0
Metering TX: 04 03 00 11 00 20 14 42
Metering TX: dd a5 03 00 ff fd 77
Metering TX: 05 03 03 00 00 02 c5 cb
[2026-09-20 11:45:29.539] [WARNING] [tid:2248] Metering bus: Metering timeout: type=0 slave=5 start=0x300 count=2 pending=
Metering TX: 06 03 00 0b 00 07 74 7d
Metering TX: 02 03 00 c0 00 30 45 d1
Metering TX: 02 03 00 30 00 30 45 e2
Metering TX: 02 03 00 90 00 30 45 c0
Metering TX: 04 03 00 11 00 20 14 42
[2026-09-20 11:45:30.375] [WARNING] [tid:2248] Metering bus: Metering timeout: type=0 slave=4 start=0x11 count=32 pending=
Metering TX: 06 03 00 0b 00 07 74 7d
Metering TX: 02 03 00 c0 00 30 45 d1
Metering TX: 02 03 00 30 00 30 45 e2
Metering TX: 02 03 00 90 00 30 45 c0
Metering TX: 04 03 00 11 00 20 14 42
Metering TX: dd a5 03 00 ff fd 77
Metering TX: 06 03 00 0b 00 07 74 7d
Metering TX: 02 03 00 c0 00 30 45 d1
Metering TX: 02 03 00 30 00 30 45 e2
Metering TX: 02 03 00 90 00 30 45 c0
Metering TX: 04 03 00 11 00 20 14 42
Metering TX: 06 03 00 0b 00 07 74 7d
Metering TX: 02 03 00 c0 00 30 45 d1
Metering TX: 02 03 00 30 00 30 45 e2
Metering TX: 02 03 00 90 00 30 45 c0
Metering TX: 04 03 00 11 00 20 14 42
Metering TX: dd a5 03 00 ff fd 77
Metering TX: 06 03 00 0b 00 07 74 7d
Metering TX: 02 03 00 c0 00 30 45 d1
Metering TX: 02 03 00 30 00 30 45 e2
Metering TX: 02 03 00 90 00 30 45 c0
Metering TX: 04 03 00 11 00 20 14 42
[2026-09-20 11:45:34.511] [WARNING] [tid:2248] Metering bus: Metering timeout: type=0 slave=4 start=0x11 count=32 pending=
Metering TX: dd a5 04 00 ff fc 77
Metering TX: 05 03 03 00 00 02 c5 cb
[2026-09-20 11:45:34.828] [WARNING] [tid:2248] Metering bus: Metering timeout: type=0 slave=5 start=0x300 count=2 pending=
Metering TX: 06 03 00 0b 00 07 74 7d
Metering TX: 02 03 00 c0 00 30 45 d1
Metering TX: 02 03 00 30 00 30 45 e2
Metering TX: 02 03 00 90 00 30 45 c0
Metering TX: 04 03 00 11 00 20 14 42
Metering TX: dd a5 03 00 ff fd 77
Metering TX: 06 03 00 0b 00 07 74 7d
Metering TX: 02 03 00 c0 00 30 45 d1
[2026-09-20 11:45:36.203] [WARNING] [tid:2248] Metering bus: Metering timeout: type=0 slave=2 start=0xc0 count=48 pending=
Metering TX: 02 03 00 30 00 30 45 e2
Metering TX: 02 03 00 90 00 30 45 c0
Metering TX: 04 03 00 11 00 20 14 42
Metering TX: 06 03 00 0b 00 07 74 7d
Metering TX: 02 03 00 c0 00 30 45 d1
[2026-09-20 11:45:37.208] [WARNING] [tid:2248] Metering bus: Metering timeout: type=0 slave=2 start=0xc0 count=48 pending=
Metering TX: 02 03 00 30 00 30 45 e2
Metering TX: 02 03 00 90 00 30 45 c0
Metering TX: 04 03 00 11 00 20 14 42
[2026-09-20 11:45:37.728] [WARNING] [tid:2248] Metering bus: Metering timeout: type=0 slave=4 start=0x11 count=32 pending=
Metering TX: dd a5 03 00 ff fd 77
Metering TX: 06 03 00 0b 00 07 74 7d
Metering TX: 02 03 00 c0 00 30 45 d1
Metering TX: 02 03 00 30 00 30 45 e2
Metering TX: 02 03 00 90 00 30 45 c0
Metering TX: 04 03 00 11 00 20 14 42
Metering TX: 06 03 00 0b 00 07 74 7d
Metering TX: 02 03 00 c0 00 30 45 d1
Metering TX: 02 03 00 30 00 30 45 e2
